<Qucs Dataset 0.0.15>
<indep x 10>
  +5.00000000000e+00
  +1.00000000000e+01
  +1.50000000000e+01
  +2.00000000000e+01
  +2.50000000000e+01
  +3.00000000000e+01
  +3.50000000000e+01
  +4.00000000000e+01
  +4.50000000000e+01
  +5.00000000000e+01
</indep>
<dep V1.I x>
  -1.39090909091e+00
  -9.56250000000e-01
  -7.28571428571e-01
  -5.88461538462e-01
  -4.93548387097e-01
  -4.25000000000e-01
  -3.73170731707e-01
  -3.32608695652e-01
  -3.00000000000e-01
  -2.73214285714e-01
</dep>
<dep _net0.V x>
  +1.53000000000e+01
  +1.53000000000e+01
  +1.53000000000e+01
  +1.53000000000e+01
  +1.53000000000e+01
  +1.53000000000e+01
  +1.53000000000e+01
  +1.53000000000e+01
  +1.53000000000e+01
  +1.53000000000e+01
</dep>
<dep izeja.V x>
  +6.95454545455e+00
  +9.56250000000e+00
  +1.09285714286e+01
  +1.17692307692e+01
  +1.23387096774e+01
  +1.27500000000e+01
  +1.30609756098e+01
  +1.33043478261e+01
  +1.35000000000e+01
  +1.36607142857e+01
</dep>
